
T1320 000:575 SEGGER J-Link V4.90 Log File (0001ms, 0264ms total)
T1320 000:575 DLL Compiled: Jul 28 2014 10:35:20 (0001ms, 0264ms total)
T1320 000:575 Logging started @ 2017-02-22 16:05 (0001ms, 0264ms total)
T1320 000:576 JLINK_SetWarnOutHandler(...) (0000ms, 0264ms total)
T1320 000:576 JLINK_OpenEx(...)
Firmware: J-Link ARM-OB STM32 compiled Aug 22 2012 19:52:04
Hardware: V7.00
S/N: 20090928
Feature(s): RDI,FlashDL,FlashBP,JFlash,GDBFull  returns O.K. (0269ms, 0533ms total)
T1320 000:845 JLINK_SetErrorOutHandler(...) (0000ms, 0533ms total)
T1320 000:845 JLINK_ExecCommand("ProjectFile = "C:\Users\lin\Desktop\自己写的驱动\CBT6\project\JLinkSettings.ini"", ...)  returns 0x00 (0001ms, 0534ms total)
T1320 000:846 JLINK_ExecCommand("Device = STM32F302CB", ...)Device "STM32F302CB" selected (128 KB flash, 24 KB RAM).  returns 0x00 (0001ms, 0535ms total)
T1320 000:847 JLINK_ExecCommand("DisableConnectionTimeout", ...)  returns 0x01 (0000ms, 0535ms total)
T1320 000:847 JLINK_GetHardwareVersion()  returns 0x11170 (0000ms, 0535ms total)
T1320 000:847 JLINK_GetDLLVersion()  returns 49000 (0000ms, 0535ms total)
T1320 000:848 JLINK_GetFirmwareString(...) (0000ms, 0536ms total)
T1320 000:850 JLINK_GetDLLVersion()  returns 49000 (0001ms, 0537ms total)
T1320 000:851 JLINK_GetCompileDateTime() (0000ms, 0537ms total)
T1320 000:851 JLINK_GetFirmwareString(...) (0000ms, 0537ms total)
T1320 000:852 JLINK_GetHardwareVersion()  returns 0x11170 (0000ms, 0537ms total)
T1320 000:854 JLINK_TIF_Select(JLINKARM_TIF_SWD)  returns 0x00 (0001ms, 0538ms total)
T1320 000:855 JLINK_SetSpeed(20000) (0001ms, 0539ms total)
T1320 000:856 JLINK_GetId() >0x108 TIF>Found SWD-DP with ID 0x2BA01477 >0x0D TIF> >0x28 TIF> >0x0D TIF> >0x28 TIF> >0x0D TIF> >0x21 TIF> >0x0D TIF> >0x28 TIF> >0x0D TIF> >0x28 TIF> >0x0D TIF> >0x28 TIF> >0x0D TIF> >0x21 TIF> >0x0D TIF> >0x21 TIF> >0x0D TIF> >0x28 TIF> >0x0D TIF> >0x21 TIF> >0x0D TIF> >0x21 TIF> >0x0D TIF> >0x28 TIF> >0x0D TIF> >0x21 TIF> >0x0D TIF> >0x21 TIF> >0x108 TIF>Found SWD-DP with ID 0x2BA01477 >0x0D TIF> >0x21 TIF> >0x0D TIF> >0x28 TIF> >0x0D TIF> >0x28 TIF> >0x0D TIF> >0x21 TIF>
 >0x0D TIF> >0x28 TIF> >0x0D TIF> >0x21 TIF> >0x0D TIF> >0x21 TIF> >0x0D TIF> >0x21 TIF> >0x0D TIF> >0x21 TIF> >0x0D TIF> >0x28 TIF> >0x0D TIF> >0x28 TIF> >0x0D TIF> >0x21 TIF> >0x0D TIF> >0x28 TIF> >0x0D TIF> >0x28 TIF> >0x0D TIF> >0x28 TIF> >0x0D TIF> >0x21 TIF> >0x0D TIF> >0x21 TIF> >0x0D TIF> >0x28 TIF> >0x0D TIF> >0x21 TIF> >0x0D TIF> >0x21 TIF>Found Cortex-M4 r0p1, Little endian. -- CPU_WriteMem(4 bytes @ 0xE0002000) -- CPU_ReadMem(4 bytes @ 0xE000EDF0) -- CPU_ReadMem(4 bytes @ 0xE0002000)
FPUnit: 6 code (BP) slots and 2 literal slots -- CPU_ReadMem(4 bytes @ 0xE000EDFC) -- CPU_ReadMem(4 bytes @ 0xE0001000) -- CPU_WriteMem(4 bytes @ 0xE0001000) -- CPU_ReadMem(4 bytes @ 0xE00FF010)TPIU fitted. -- CPU_ReadMem(4 bytes @ 0xE00FF014)ETM fitted. -- CPU_ReadMem(4 bytes @ 0xE00FF018) -- CPU_WriteMem(24576 bytes @ 0x20000000) >0x0D TIF> >0x21 TIF>  returns 0x2BA01477 (0332ms, 0871ms total)
T1320 001:188 JLINK_GetDLLVersion()  returns 49000 (0000ms, 0871ms total)
T1320 001:188 JLINK_CORE_GetFound()  returns 0xE0000FF (0000ms, 0871ms total)
T1320 001:189 JLINK_ReadMem (0xE00FF000, 0x0020 Bytes, ...) -- CPU_ReadMem(32 bytes @ 0xE00FF000) - Data: 03 F0 F0 FF 03 20 F0 FF 03 30 F0 FF 03 10 F0 FF ...  returns 0x00 (0001ms, 0872ms total)
T1320 001:190 JLINK_ReadMem (0xE000EFF0, 0x0010 Bytes, ...) -- CPU_ReadMem(16 bytes @ 0xE000EFF0) - Data: 0D 00 00 00 E0 00 00 00 05 00 00 00 B1 00 00 00  returns 0x00 (0001ms, 0873ms total)
T1320 001:191 JLINK_ReadMem (0xE000EFD0, 0x0020 Bytes, ...) -- CPU_ReadMem(32 bytes @ 0xE000EFD0) - Data: 04 00 00 00 00 00 00 00 00 00 00 00 00 00 00 00 ...  returns 0x00 (0001ms, 0874ms total)
T1320 001:192 JLINK_ReadMem (0xE0001FF0, 0x0010 Bytes, ...) -- CPU_ReadMem(16 bytes @ 0xE0001FF0) - Data: 0D 00 00 00 E0 00 00 00 05 00 00 00 B1 00 00 00  returns 0x00 (0001ms, 0875ms total)
T1320 001:193 JLINK_ReadMem (0xE0001FD0, 0x0020 Bytes, ...) -- CPU_ReadMem(32 bytes @ 0xE0001FD0) - Data: 04 00 00 00 00 00 00 00 00 00 00 00 00 00 00 00 ...  returns 0x00 (0001ms, 0876ms total)
T1320 001:194 JLINK_ReadMem (0xE0002FF0, 0x0010 Bytes, ...) -- CPU_ReadMem(16 bytes @ 0xE0002FF0) - Data: 0D 00 00 00 E0 00 00 00 05 00 00 00 B1 00 00 00  returns 0x00 (0001ms, 0877ms total)
T1320 001:195 JLINK_ReadMem (0xE0002FD0, 0x0020 Bytes, ...) -- CPU_ReadMem(32 bytes @ 0xE0002FD0) - Data: 04 00 00 00 00 00 00 00 00 00 00 00 00 00 00 00 ...  returns 0x00 (0001ms, 0878ms total)
T1320 001:196 JLINK_ReadMem (0xE0000FF0, 0x0010 Bytes, ...) -- CPU_ReadMem(16 bytes @ 0xE0000FF0) - Data: 0D 00 00 00 E0 00 00 00 05 00 00 00 B1 00 00 00  returns 0x00 (0001ms, 0879ms total)
T1320 001:197 JLINK_ReadMem (0xE0000FD0, 0x0020 Bytes, ...) -- CPU_ReadMem(32 bytes @ 0xE0000FD0) - Data: 04 00 00 00 00 00 00 00 00 00 00 00 00 00 00 00 ...  returns 0x00 (0001ms, 0880ms total)
T1320 001:198 JLINK_ReadMem (0xE0040FF0, 0x0010 Bytes, ...) -- CPU_ReadMem(16 bytes @ 0xE0040FF0) - Data: 0D 00 00 00 90 00 00 00 05 00 00 00 B1 00 00 00  returns 0x00 (0001ms, 0881ms total)
T1320 001:199 JLINK_ReadMem (0xE0040FD0, 0x0020 Bytes, ...) -- CPU_ReadMem(32 bytes @ 0xE0040FD0) - Data: 04 00 00 00 00 00 00 00 00 00 00 00 00 00 00 00 ...  returns 0x00 (0001ms, 0882ms total)
T1320 001:200 JLINK_ReadMem (0xE0041FF0, 0x0010 Bytes, ...) -- CPU_ReadMem(16 bytes @ 0xE0041FF0) - Data: 0D 00 00 00 90 00 00 00 05 00 00 00 B1 00 00 00  returns 0x00 (0001ms, 0883ms total)
T1320 001:201 JLINK_ReadMem (0xE0041FD0, 0x0020 Bytes, ...) -- CPU_ReadMem(32 bytes @ 0xE0041FD0) - Data: 04 00 00 00 00 00 00 00 00 00 00 00 00 00 00 00 ...  returns 0x00 (0001ms, 0884ms total)
T1320 001:202 JLINK_ReadMemU32(0xE000EF40, 0x0001 Items, ...) -- CPU_ReadMem(4 bytes @ 0xE000EF40) - Data: 21 00 11 10  returns 0x01 (0000ms, 0884ms total)
T1320 001:202 JLINK_ReadMemU32(0xE000EF44, 0x0001 Items, ...) -- CPU_ReadMem(4 bytes @ 0xE000EF44) - Data: 11 00 00 11  returns 0x01 (0001ms, 0885ms total)
T1320 001:203 JLINK_ReadMemU32(0xE000ED00, 0x0001 Items, ...) -- CPU_ReadMem(4 bytes @ 0xE000ED00) - Data: 41 C2 0F 41  returns 0x01 (0001ms, 0886ms total)
T1320 001:204 JLINK_SetResetType(JLINKARM_RESET_TYPE_NORMAL)  returns JLINKARM_RESET_TYPE_NORMAL (0000ms, 0886ms total)
T1320 001:204 JLINK_Reset() -- CPU_WriteMem(4 bytes @ 0xE000EDF0) -- CPU_WriteMem(4 bytes @ 0xE000EDFC) >0x35 TIF> -- CPU_WriteMem(4 bytes @ 0xE000ED0C) -- CPU_ReadMem(4 bytes @ 0xE000EDF0) -- CPU_ReadMem(4 bytes @ 0xE000EDF0) -- CPU_WriteMem(4 bytes @ 0xE000EDF0) -- CPU_WriteMem(4 bytes @ 0xE000EDFC) -- CPU is running -- CPU_ReadMem(4 bytes @ 0xE000EDF0) -- CPU_WriteMem(4 bytes @ 0xE0002000) -- CPU_ReadMem(4 bytes @ 0xE000EDFC) -- CPU_ReadMem(4 bytes @ 0xE0001000) (0021ms, 0907ms total)
T1320 001:225 JLINK_ReadReg(R15 (PC))  returns 0x0800019C (0000ms, 0907ms total)
T1320 001:225 JLINK_ReadReg(XPSR)  returns 0x01000000 (0000ms, 0907ms total)
T1320 001:225 JLINK_Halt()  returns 0x00 (0000ms, 0907ms total)
T1320 001:225 JLINK_IsHalted()  returns TRUE (0000ms, 0907ms total)
T1320 001:225 JLINK_ReadMemU32(0xE000EDF0, 0x0001 Items, ...) -- CPU_ReadMem(4 bytes @ 0xE000EDF0) - Data: 03 00 03 00  returns 0x01 (0001ms, 0908ms total)
T1320 001:226 JLINK_WriteU32(0xE000EDF0, 0xA05F0003) -- CPU_WriteMem(4 bytes @ 0xE000EDF0)  returns 0x00 (0001ms, 0909ms total)
T1320 001:227 JLINK_WriteU32(0xE000EDFC, 0x01000000) -- CPU_WriteMem(4 bytes @ 0xE000EDFC)  returns 0x00 (0001ms, 0910ms total)
T1320 001:228 JLINK_GetHWStatus(...)  returns 0x00 (0001ms, 0911ms total)
T1320 001:229 JLINK_GetNumBPUnits(Type = 0xFFFFFF00)  returns 0x06 (0000ms, 0911ms total)
T1320 001:229 JLINK_GetNumBPUnits(Type = 0xF0)  returns 0x2000 (0000ms, 0911ms total)
T1320 001:229 JLINK_GetNumWPUnits()  returns 0x04 (0000ms, 0911ms total)
T1320 001:229 JLINK_GetSpeed()  returns 0xFA0 (0000ms, 0911ms total)
T1320 001:230 JLINK_ReadMemU32(0xE000E004, 0x0001 Items, ...) -- CPU_ReadMem(4 bytes @ 0xE000E004) - Data: 02 00 00 00  returns 0x01 (0000ms, 0911ms total)
T1320 001:230 JLINK_ReadMemU32(0xE000E004, 0x0001 Items, ...) -- CPU_ReadMem(4 bytes @ 0xE000E004) - Data: 02 00 00 00  returns 0x01 (0001ms, 0912ms total)
T1320 001:231 JLINK_WriteMem(0xE0001000, 0x001C Bytes, ...) - Data: 01 00 00 00 00 00 00 00 00 00 00 00 00 00 00 00 ... -- CPU_WriteMem(28 bytes @ 0xE0001000)  returns 0x1C (0001ms, 0913ms total)
T1320 001:232 JLINK_ReadMem (0xE0001000, 0x001C Bytes, ...) -- CPU_ReadMem(28 bytes @ 0xE0001000) - Data: 01 00 00 40 00 00 00 00 00 00 00 00 00 00 00 00 ...  returns 0x00 (0001ms, 0914ms total)
T1320 001:233 JLINK_ReadReg(R15 (PC))  returns 0x0800019C (0000ms, 0914ms total)
T1320 001:233 JLINK_ReadReg(XPSR)  returns 0x01000000 (0000ms, 0914ms total)
T1320 001:331 JLINK_SetResetType(JLINKARM_RESET_TYPE_NORMAL)  returns JLINKARM_RESET_TYPE_NORMAL (0000ms, 0914ms total)
T1320 001:331 JLINK_Reset() -- CPU_WriteMem(4 bytes @ 0xE000EDF0) -- CPU_WriteMem(4 bytes @ 0xE000EDFC) >0x35 TIF> -- CPU_WriteMem(4 bytes @ 0xE000ED0C) -- CPU_ReadMem(4 bytes @ 0xE000EDF0) -- CPU_ReadMem(4 bytes @ 0xE000EDF0) -- CPU_WriteMem(4 bytes @ 0xE000EDF0) -- CPU_WriteMem(4 bytes @ 0xE000EDFC) -- CPU is running -- CPU_ReadMem(4 bytes @ 0xE000EDF0) -- CPU_WriteMem(4 bytes @ 0xE0002000) -- CPU_ReadMem(4 bytes @ 0xE000EDFC) -- CPU_ReadMem(4 bytes @ 0xE0001000) (0022ms, 0936ms total)
T1320 001:354 JLINK_ReadReg(R15 (PC))  returns 0x0800019C (0000ms, 0936ms total)
T1320 001:354 JLINK_ReadReg(XPSR)  returns 0x01000000 (0000ms, 0936ms total)
T1320 001:579 JLINK_ReadMem (0x0800019C, 0x003C Bytes, ...) -- CPU_ReadMem(128 bytes @ 0x08000180) -- Updating C cache (128 bytes @ 0x08000180) -- Read from C cache (60 bytes @ 0x0800019C) - Data: 06 48 80 47 06 48 00 47 FE E7 FE E7 FE E7 FE E7 ...  returns 0x00 (0002ms, 0938ms total)
T1320 002:599 JLINK_ReadMem (0x00000000, 0x01CB Bytes, ...) -- CPU_ReadMem(4 bytes @ 0x00000004) -- CPU_ReadMem(384 bytes @ 0x08000000) -- Updating C cache (384 bytes @ 0x08000000) -- Read from C cache (459 bytes @ 0x08000000) - Data: 18 4D 00 20 9D 01 00 08 0D 76 00 08 25 6F 00 08 ...  returns 0x00 (0006ms, 0944ms total)
T1320 003:386 JLINK_ReadMem (0x00000000, 0x0264 Bytes, ...) -- CPU_ReadMem(128 bytes @ 0x08000200) -- Updating C cache (128 bytes @ 0x08000200) -- Read from C cache (612 bytes @ 0x08000000) - Data: 18 4D 00 20 9D 01 00 08 0D 76 00 08 25 6F 00 08 ...  returns 0x00 (0002ms, 0946ms total)
T1320 003:501 JLINK_ReadMem (0x00000000, 0x0363 Bytes, ...) -- CPU_ReadMem(256 bytes @ 0x08000280) -- Updating C cache (256 bytes @ 0x08000280) -- Read from C cache (867 bytes @ 0x08000000) - Data: 18 4D 00 20 9D 01 00 08 0D 76 00 08 25 6F 00 08 ...  returns 0x00 (0004ms, 0950ms total)
T1320 003:687 JLINK_ReadMem (0x200023E4, 0x001C Bytes, ...) -- CPU_ReadMem(64 bytes @ 0x200023C0) -- Updating C cache (64 bytes @ 0x200023C0) -- Read from C cache (28 bytes @ 0x200023E4) - Data: AA 55 AA 55 AA 55 AA 55 AA 55 AA 55 AA 55 AA 55 ...  returns 0x00 (0002ms, 0952ms total)
T1320 003:689 JLINK_ReadMem (0x20002400, 0x0004 Bytes, ...) -- CPU_ReadMem(64 bytes @ 0x20002400) -- Updating C cache (64 bytes @ 0x20002400) -- Read from C cache (4 bytes @ 0x20002400) - Data: AA 55 AA 55  returns 0x00 (0001ms, 0953ms total)
T2408 003:854 JLINK_SetBPEx(Addr = 0x08008CF0, Type = 0xFFFFFFF2)  returns 0x00000001 (0000ms, 0953ms total)
T2408 003:854 JLINK_SetBPEx(Addr = 0x0800094A, Type = 0xFFFFFFF2)  returns 0x00000002 (0000ms, 0953ms total)
T2408 003:854 JLINK_SetBPEx(Addr = 0x08000982, Type = 0xFFFFFFF2)  returns 0x00000003 (0000ms, 0953ms total)
T2408 003:854 JLINK_Go() -- CPU_WriteMem(4 bytes @ 0xE0002000) -- CPU_WriteMem(4 bytes @ 0xE0002008) -- CPU_WriteMem(4 bytes @ 0xE0002000) -- CPU_WriteMem(4 bytes @ 0xE000200C) -- CPU_WriteMem(4 bytes @ 0xE0002000) -- CPU_WriteMem(4 bytes @ 0xE0002010) -- CPU_WriteMem(4 bytes @ 0xE0002014) -- CPU_WriteMem(4 bytes @ 0xE0002018) -- CPU_WriteMem(4 bytes @ 0xE000201C) -- CPU_WriteMem(4 bytes @ 0xE0001004) (0009ms, 0962ms total)
T2408 003:964 JLINK_IsHalted()  returns TRUE (0003ms, 0965ms total)
T2408 003:967 JLINK_Halt()  returns 0x00 (0000ms, 0962ms total)
T2408 003:967 JLINK_IsHalted()  returns TRUE (0000ms, 0962ms total)
T2408 003:967 JLINK_IsHalted()  returns TRUE (0000ms, 0962ms total)
T2408 003:967 JLINK_IsHalted()  returns TRUE (0000ms, 0962ms total)
T2408 003:967 JLINK_ReadReg(R15 (PC))  returns 0x08008CF0 (0000ms, 0962ms total)
T2408 003:967 JLINK_ReadReg(XPSR)  returns 0x61000000 (0000ms, 0962ms total)
T2408 003:967 JLINK_ClrBPEx(BPHandle = 0x00000001)  returns 0x00 (0000ms, 0962ms total)
T2408 003:968 JLINK_ClrBPEx(BPHandle = 0x00000002)  returns 0x00 (0000ms, 0963ms total)
T2408 003:968 JLINK_ClrBPEx(BPHandle = 0x00000003)  returns 0x00 (0000ms, 0963ms total)
T2408 003:968 JLINK_ReadMemU32(0xE000ED30, 0x0001 Items, ...) -- CPU_ReadMem(4 bytes @ 0xE000ED30) - Data: 03 00 00 00  returns 0x01 (0001ms, 0964ms total)
T2408 003:969 JLINK_ReadMemU32(0xE0001028, 0x0001 Items, ...) -- CPU_ReadMem(4 bytes @ 0xE0001028) - Data: 00 00 00 00  returns 0x01 (0000ms, 0964ms total)
T2408 003:969 JLINK_ReadMemU32(0xE0001038, 0x0001 Items, ...) -- CPU_ReadMem(4 bytes @ 0xE0001038) - Data: 00 02 00 00  returns 0x01 (0001ms, 0965ms total)
T2408 003:970 JLINK_ReadMemU32(0xE0001048, 0x0001 Items, ...) -- CPU_ReadMem(4 bytes @ 0xE0001048) - Data: 00 00 00 00  returns 0x01 (0001ms, 0966ms total)
T2408 003:971 JLINK_ReadMemU32(0xE0001058, 0x0001 Items, ...) -- CPU_ReadMem(4 bytes @ 0xE0001058) - Data: 00 00 00 00  returns 0x01 (0000ms, 0966ms total)
T2408 003:971 JLINK_ReadReg(R0)  returns 0x08008CF1 (0000ms, 0966ms total)
T2408 003:971 JLINK_ReadReg(R1)  returns 0x20004D18 (0000ms, 0966ms total)
T2408 003:971 JLINK_ReadReg(R2)  returns 0x00000000 (0001ms, 0967ms total)
T2408 003:972 JLINK_ReadReg(R3)  returns 0x08008CAF (0000ms, 0967ms total)
T2408 003:972 JLINK_ReadReg(R4)  returns 0x08008E70 (0000ms, 0967ms total)
T2408 003:972 JLINK_ReadReg(R5)  returns 0x08008E70 (0000ms, 0967ms total)
T2408 003:972 JLINK_ReadReg(R6)  returns 0x00000000 (0000ms, 0967ms total)
T2408 003:972 JLINK_ReadReg(R7)  returns 0x00000000 (0000ms, 0967ms total)
T2408 003:972 JLINK_ReadReg(R8)  returns 0x00000000 (0000ms, 0967ms total)
T2408 003:972 JLINK_ReadReg(R9)  returns 0x00000000 (0000ms, 0967ms total)
T2408 003:972 JLINK_ReadReg(R10)  returns 0x00000000 (0000ms, 0967ms total)
T2408 003:972 JLINK_ReadReg(R11)  returns 0x00000000 (0000ms, 0967ms total)
T2408 003:972 JLINK_ReadReg(R12)  returns 0x00000000 (0000ms, 0967ms total)
T2408 003:972 JLINK_ReadReg(R13 (SP))  returns 0x20004D18 (0000ms, 0967ms total)
T2408 003:972 JLINK_ReadReg(R14)  returns 0x08000615 (0000ms, 0967ms total)
T2408 003:972 JLINK_ReadReg(R15 (PC))  returns 0x08008CF0 (0000ms, 0967ms total)
T2408 003:972 JLINK_ReadReg(XPSR)  returns 0x61000000 (0000ms, 0967ms total)
T2408 003:972 JLINK_ReadReg(MSP)  returns 0x20004D18 (0000ms, 0967ms total)
T2408 003:972 JLINK_ReadReg(PSP)  returns 0x00000000 (0000ms, 0967ms total)
T2408 003:972 JLINK_ReadReg(CFBP)  returns 0x00000000 (0000ms, 0967ms total)
T2408 003:972 JLINK_ReadReg(FPSCR)  returns 0x00000000 (0005ms, 0972ms total)
T2408 003:977 JLINK_ReadReg(FPS0)  returns 0x00000000 (0000ms, 0972ms total)
T2408 003:977 JLINK_ReadReg(FPS1)  returns 0x00000000 (0001ms, 0973ms total)
T2408 003:978 JLINK_ReadReg(FPS2)  returns 0x00000000 (0000ms, 0973ms total)
T2408 003:978 JLINK_ReadReg(FPS3)  returns 0x00000000 (0000ms, 0973ms total)
T2408 003:978 JLINK_ReadReg(FPS4)  returns 0x00000000 (0000ms, 0973ms total)
T2408 003:978 JLINK_ReadReg(FPS5)  returns 0x00000000 (0000ms, 0973ms total)
T2408 003:978 JLINK_ReadReg(FPS6)  returns 0x00000000 (0000ms, 0973ms total)
T2408 003:978 JLINK_ReadReg(FPS7)  returns 0x00000000 (0000ms, 0973ms total)
T2408 003:978 JLINK_ReadReg(FPS8)  returns 0x00000000 (0000ms, 0973ms total)
T2408 003:978 JLINK_ReadReg(FPS9)  returns 0x00000000 (0000ms, 0973ms total)
T2408 003:978 JLINK_ReadReg(FPS10)  returns 0x00000000 (0000ms, 0973ms total)
T2408 003:978 JLINK_ReadReg(FPS11)  returns 0x00000000 (0000ms, 0973ms total)
T2408 003:978 JLINK_ReadReg(FPS12)  returns 0x00000000 (0000ms, 0973ms total)
T2408 003:978 JLINK_ReadReg(FPS13)  returns 0x00000000 (0000ms, 0973ms total)
T2408 003:978 JLINK_ReadReg(FPS14)  returns 0x00000000 (0000ms, 0973ms total)
T2408 003:978 JLINK_ReadReg(FPS15)  returns 0x00000000 (0000ms, 0973ms total)
T2408 003:978 JLINK_ReadReg(FPS16)  returns 0x00000000 (0000ms, 0973ms total)
T2408 003:978 JLINK_ReadReg(FPS17)  returns 0x00000000 (0000ms, 0973ms total)
T2408 003:978 JLINK_ReadReg(FPS18)  returns 0x00000000 (0000ms, 0973ms total)
T2408 003:978 JLINK_ReadReg(FPS19)  returns 0x00000000 (0000ms, 0973ms total)
T2408 003:978 JLINK_ReadReg(FPS20)  returns 0x00000000 (0000ms, 0973ms total)
T2408 003:978 JLINK_ReadReg(FPS21)  returns 0x00000000 (0000ms, 0973ms total)
T2408 003:978 JLINK_ReadReg(FPS22)  returns 0x00000000 (0000ms, 0973ms total)
T2408 003:978 JLINK_ReadReg(FPS23)  returns 0x00000000 (0000ms, 0973ms total)
T2408 003:978 JLINK_ReadReg(FPS24)  returns 0x00000000 (0000ms, 0973ms total)
T2408 003:978 JLINK_ReadReg(FPS25)  returns 0x00000000 (0000ms, 0973ms total)
T2408 003:978 JLINK_ReadReg(FPS26)  returns 0x00000000 (0001ms, 0974ms total)
T2408 003:979 JLINK_ReadReg(FPS27)  returns 0x00000000 (0000ms, 0974ms total)
T2408 003:979 JLINK_ReadReg(FPS28)  returns 0x00000000 (0000ms, 0974ms total)
T2408 003:979 JLINK_ReadReg(FPS29)  returns 0x00000000 (0000ms, 0974ms total)
T2408 003:979 JLINK_ReadReg(FPS30)  returns 0x00000000 (0000ms, 0974ms total)
T2408 003:979 JLINK_ReadReg(FPS31)  returns 0x00000000 (0000ms, 0974ms total)
T1320 003:997 JLINK_ReadMem (0x200023E4, 0x001C Bytes, ...) -- CPU_ReadMem(64 bytes @ 0x200023C0) -- Updating C cache (64 bytes @ 0x200023C0) -- Read from C cache (28 bytes @ 0x200023E4) - Data: 00 00 00 00 00 00 00 00 00 00 00 00 00 00 00 00 ...  returns 0x00 (0001ms, 0975ms total)
T1320 003:998 JLINK_ReadMem (0x20002400, 0x0004 Bytes, ...) -- CPU_ReadMem(64 bytes @ 0x20002400) -- Updating C cache (64 bytes @ 0x20002400) -- Read from C cache (4 bytes @ 0x20002400) - Data: 00 00 00 00  returns 0x00 (0002ms, 0977ms total)
T1320 004:004 JLINK_ReadMem (0x08008CF0, 0x003C Bytes, ...) -- CPU_ReadMem(128 bytes @ 0x08008CC0) -- Updating C cache (128 bytes @ 0x08008CC0) -- Read from C cache (60 bytes @ 0x08008CF0) - Data: 00 BF 00 24 FA F7 FC F8 FE F7 D8 FD FE F7 22 FA ...  returns 0x00 (0003ms, 0980ms total)
T2408 016:460 JLINK_SetBPEx(Addr = 0x0800094A, Type = 0xFFFFFFF2)  returns 0x00000004 (0000ms, 0980ms total)
T2408 016:460 JLINK_SetBPEx(Addr = 0x08000982, Type = 0xFFFFFFF2)  returns 0x00000005 (0000ms, 0980ms total)
T2408 016:460 JLINK_Go() -- CPU_WriteMem(4 bytes @ 0xE0002000) -- CPU_WriteMem(4 bytes @ 0xE0002000) -- CPU_WriteMem(4 bytes @ 0xE0002008) -- CPU_WriteMem(4 bytes @ 0xE000200C) -- CPU_WriteMem(4 bytes @ 0xE0002010) (0004ms, 0984ms total)
T2408 016:565 JLINK_IsHalted()  returns TRUE (0003ms, 0988ms total)
T2408 016:568 JLINK_Halt()  returns 0x00 (0000ms, 0985ms total)
T2408 016:568 JLINK_IsHalted()  returns TRUE (0000ms, 0985ms total)
T2408 016:568 JLINK_IsHalted()  returns TRUE (0000ms, 0985ms total)
T2408 016:568 JLINK_IsHalted()  returns TRUE (0000ms, 0985ms total)
T2408 016:568 JLINK_ReadReg(R15 (PC))  returns 0x0800094A (0000ms, 0985ms total)
T2408 016:568 JLINK_ReadReg(XPSR)  returns 0x81000000 (0000ms, 0985ms total)
T2408 016:568 JLINK_ClrBPEx(BPHandle = 0x00000004)  returns 0x00 (0000ms, 0985ms total)
T2408 016:568 JLINK_ClrBPEx(BPHandle = 0x00000005)  returns 0x00 (0000ms, 0985ms total)
T2408 016:568 JLINK_ReadMemU32(0xE000ED30, 0x0001 Items, ...) -- CPU_ReadMem(4 bytes @ 0xE000ED30) - Data: 03 00 00 00  returns 0x01 (0001ms, 0986ms total)
T2408 016:569 JLINK_ReadMemU32(0xE0001028, 0x0001 Items, ...) -- CPU_ReadMem(4 bytes @ 0xE0001028) - Data: 00 00 00 00  returns 0x01 (0001ms, 0987ms total)
T2408 016:570 JLINK_ReadMemU32(0xE0001038, 0x0001 Items, ...) -- CPU_ReadMem(4 bytes @ 0xE0001038) - Data: 00 02 00 00  returns 0x01 (0000ms, 0987ms total)
T2408 016:571 JLINK_ReadMemU32(0xE0001048, 0x0001 Items, ...) -- CPU_ReadMem(4 bytes @ 0xE0001048) - Data: 00 00 00 00  returns 0x01 (0000ms, 0988ms total)
T2408 016:571 JLINK_ReadMemU32(0xE0001058, 0x0001 Items, ...) -- CPU_ReadMem(4 bytes @ 0xE0001058) - Data: 00 00 00 00  returns 0x01 (0001ms, 0989ms total)
T2408 016:572 JLINK_ReadReg(R0)  returns 0x20004D08 (0000ms, 0989ms total)
T2408 016:572 JLINK_ReadReg(R1)  returns 0x00000000 (0000ms, 0989ms total)
T2408 016:572 JLINK_ReadReg(R2)  returns 0x00000000 (0000ms, 0989ms total)
T2408 016:572 JLINK_ReadReg(R3)  returns 0x00000000 (0000ms, 0989ms total)
T2408 016:572 JLINK_ReadReg(R4)  returns 0x20004D08 (0000ms, 0989ms total)
T2408 016:572 JLINK_ReadReg(R5)  returns 0x08008E70 (0000ms, 0989ms total)
T2408 016:572 JLINK_ReadReg(R6)  returns 0x00000000 (0000ms, 0989ms total)
T2408 016:572 JLINK_ReadReg(R7)  returns 0x00000000 (0000ms, 0989ms total)
T2408 016:572 JLINK_ReadReg(R8)  returns 0x00000000 (0000ms, 0989ms total)
T2408 016:572 JLINK_ReadReg(R9)  returns 0x00000000 (0000ms, 0989ms total)
T2408 016:572 JLINK_ReadReg(R10)  returns 0x00000000 (0000ms, 0989ms total)
T2408 016:572 JLINK_ReadReg(R11)  returns 0x00000000 (0000ms, 0989ms total)
T2408 016:572 JLINK_ReadReg(R12)  returns 0x00000000 (0000ms, 0989ms total)
T2408 016:572 JLINK_ReadReg(R13 (SP))  returns 0x20004CD8 (0000ms, 0989ms total)
T2408 016:572 JLINK_ReadReg(R14)  returns 0x08006FC5 (0000ms, 0989ms total)
T2408 016:572 JLINK_ReadReg(R15 (PC))  returns 0x0800094A (0000ms, 0989ms total)
T2408 016:572 JLINK_ReadReg(XPSR)  returns 0x81000000 (0000ms, 0989ms total)
T2408 016:572 JLINK_ReadReg(MSP)  returns 0x20004CD8 (0000ms, 0989ms total)
T2408 016:572 JLINK_ReadReg(PSP)  returns 0x00000000 (0000ms, 0989ms total)
T2408 016:572 JLINK_ReadReg(CFBP)  returns 0x04000000 (0000ms, 0989ms total)
T2408 016:572 JLINK_ReadReg(FPSCR)  returns 0x80000010 (0006ms, 0995ms total)
T2408 016:578 JLINK_ReadReg(FPS0)  returns 0x443F9333 (0000ms, 0995ms total)
T2408 016:578 JLINK_ReadReg(FPS1)  returns 0xC24C0000 (0000ms, 0995ms total)
T2408 016:578 JLINK_ReadReg(FPS2)  returns 0x44009087 (0000ms, 0995ms total)
T2408 016:578 JLINK_ReadReg(FPS3)  returns 0x00000000 (0000ms, 0995ms total)
T2408 016:578 JLINK_ReadReg(FPS4)  returns 0x00000000 (0000ms, 0995ms total)
T2408 016:578 JLINK_ReadReg(FPS5)  returns 0x00000000 (0000ms, 0995ms total)
T2408 016:578 JLINK_ReadReg(FPS6)  returns 0x00000000 (0000ms, 0995ms total)
T2408 016:578 JLINK_ReadReg(FPS7)  returns 0x00000000 (0000ms, 0995ms total)
T2408 016:578 JLINK_ReadReg(FPS8)  returns 0x00000000 (0000ms, 0995ms total)
T2408 016:578 JLINK_ReadReg(FPS9)  returns 0x00000000 (0000ms, 0995ms total)
T2408 016:578 JLINK_ReadReg(FPS10)  returns 0x00000000 (0000ms, 0995ms total)
T2408 016:578 JLINK_ReadReg(FPS11)  returns 0x00000000 (0000ms, 0995ms total)
T2408 016:578 JLINK_ReadReg(FPS12)  returns 0x00000000 (0000ms, 0995ms total)
T2408 016:578 JLINK_ReadReg(FPS13)  returns 0x00000000 (0000ms, 0995ms total)
T2408 016:578 JLINK_ReadReg(FPS14)  returns 0x00000000 (0000ms, 0995ms total)
T2408 016:578 JLINK_ReadReg(FPS15)  returns 0x00000000 (0000ms, 0995ms total)
T2408 016:578 JLINK_ReadReg(FPS16)  returns 0x43E7A10E (0000ms, 0995ms total)
T2408 016:578 JLINK_ReadReg(FPS17)  returns 0x00000000 (0000ms, 0995ms total)
T2408 016:578 JLINK_ReadReg(FPS18)  returns 0x00000000 (0000ms, 0995ms total)
T2408 016:578 JLINK_ReadReg(FPS19)  returns 0x00000000 (0000ms, 0995ms total)
T2408 016:578 JLINK_ReadReg(FPS20)  returns 0x00000000 (0000ms, 0995ms total)
T2408 016:578 JLINK_ReadReg(FPS21)  returns 0x00000000 (0000ms, 0995ms total)
T2408 016:578 JLINK_ReadReg(FPS22)  returns 0x00000000 (0000ms, 0995ms total)
T2408 016:578 JLINK_ReadReg(FPS23)  returns 0x00000000 (0000ms, 0995ms total)
T2408 016:578 JLINK_ReadReg(FPS24)  returns 0x00000000 (0000ms, 0995ms total)
T2408 016:578 JLINK_ReadReg(FPS25)  returns 0x00000000 (0000ms, 0995ms total)
T2408 016:578 JLINK_ReadReg(FPS26)  returns 0x00000000 (0000ms, 0995ms total)
T2408 016:578 JLINK_ReadReg(FPS27)  returns 0x00000000 (0000ms, 0995ms total)
T2408 016:578 JLINK_ReadReg(FPS28)  returns 0x00000000 (0000ms, 0995ms total)
T2408 016:578 JLINK_ReadReg(FPS29)  returns 0x00000000 (0000ms, 0995ms total)
T2408 016:578 JLINK_ReadReg(FPS30)  returns 0x00000000 (0000ms, 0995ms total)
T2408 016:578 JLINK_ReadReg(FPS31)  returns 0x00000000 (0001ms, 0996ms total)
T1320 016:580 JLINK_ReadMem (0x20004CFC, 0x0004 Bytes, ...) -- CPU_ReadMem(64 bytes @ 0x20004CC0) -- Updating C cache (64 bytes @ 0x20004CC0) -- Read from C cache (4 bytes @ 0x20004CFC) - Data: C5 6F 00 08  returns 0x00 (0002ms, 0998ms total)
T1320 016:582 JLINK_ReadMem (0x20004CF8, 0x0004 Bytes, ...) -- Read from C cache (4 bytes @ 0x20004CF8) - Data: 00 00 00 00  returns 0x00 (0000ms, 0998ms total)
T1320 016:582 JLINK_ReadMem (0x20004D14, 0x0004 Bytes, ...) -- CPU_ReadMem(64 bytes @ 0x20004D00) -- Updating C cache (64 bytes @ 0x20004D00) -- Read from C cache (4 bytes @ 0x20004D14) - Data: E7 8D 00 08  returns 0x00 (0001ms, 0999ms total)
T1320 016:583 JLINK_ReadMem (0x20004D0C, 0x0004 Bytes, ...) -- Read from C cache (4 bytes @ 0x20004D0C) - Data: 00 00 00 00  returns 0x00 (0000ms, 0999ms total)
T1320 016:583 JLINK_ReadMem (0x20004D10, 0x0004 Bytes, ...) -- Read from C cache (4 bytes @ 0x20004D10) - Data: 70 8E 00 08  returns 0x00 (0000ms, 0999ms total)
T1320 016:607 JLINK_ReadMem (0x200023E4, 0x001C Bytes, ...) -- CPU_ReadMem(64 bytes @ 0x200023C0) -- Updating C cache (64 bytes @ 0x200023C0) -- Read from C cache (28 bytes @ 0x200023E4) - Data: AA AA 10 00 00 00 3E 04 00 00 00 00 00 00 08 07 ...  returns 0x00 (0002ms, 1001ms total)
T1320 016:609 JLINK_ReadMem (0x20002400, 0x0004 Bytes, ...) -- CPU_ReadMem(64 bytes @ 0x20002400) -- Updating C cache (64 bytes @ 0x20002400) -- Read from C cache (4 bytes @ 0x20002400) - Data: 28 00 00 32  returns 0x00 (0001ms, 1002ms total)
T2408 023:532 JLINK_Step() -- CPU_ReadMem(64 bytes @ 0x08000940) -- Updating C cache (64 bytes @ 0x08000940) -- Read from C cache (2 bytes @ 0x0800094A) -- CPU_ReadMem(4 bytes @ 0xE0001004) -- Read from C cache (2 bytes @ 0x0800094C) -- Not simulated -- CPU_WriteMem(4 bytes @ 0xE0002008) -- CPU_WriteMem(4 bytes @ 0xE000200C)  returns 0x00 (0010ms, 1012ms total)
T2408 023:542 JLINK_ReadReg(R15 (PC))  returns 0x0800094E (0000ms, 1012ms total)
T2408 023:542 JLINK_ReadReg(XPSR)  returns 0x81000000 (0000ms, 1012ms total)
T2408 023:542 JLINK_SetBPEx(Addr = 0x0800094A, Type = 0xFFFFFFF2)  returns 0x00000006 (0000ms, 1012ms total)
T2408 023:542 JLINK_SetBPEx(Addr = 0x08000982, Type = 0xFFFFFFF2)  returns 0x00000007 (0000ms, 1012ms total)
T2408 023:542 JLINK_Go() -- CPU_WriteMem(4 bytes @ 0xE0002000) -- CPU_WriteMem(4 bytes @ 0xE0002000) -- CPU_WriteMem(4 bytes @ 0xE0002008) -- CPU_WriteMem(4 bytes @ 0xE000200C) (0004ms, 1016ms total)
T2408 023:648 JLINK_IsHalted()  returns TRUE (0003ms, 1019ms total)
T2408 023:651 JLINK_Halt()  returns 0x00 (0001ms, 1017ms total)
T2408 023:652 JLINK_IsHalted()  returns TRUE (0000ms, 1017ms total)
T2408 023:652 JLINK_IsHalted()  returns TRUE (0000ms, 1017ms total)
T2408 023:652 JLINK_IsHalted()  returns TRUE (0000ms, 1017ms total)
T2408 023:652 JLINK_ReadReg(R15 (PC))  returns 0x0800094A (0000ms, 1017ms total)
T2408 023:652 JLINK_ReadReg(XPSR)  returns 0x81000000 (0000ms, 1017ms total)
T2408 023:652 JLINK_ClrBPEx(BPHandle = 0x00000006)  returns 0x00 (0000ms, 1017ms total)
T2408 023:652 JLINK_ClrBPEx(BPHandle = 0x00000007)  returns 0x00 (0000ms, 1017ms total)
T2408 023:652 JLINK_ReadMemU32(0xE000ED30, 0x0001 Items, ...) -- CPU_ReadMem(4 bytes @ 0xE000ED30) - Data: 03 00 00 00  returns 0x01 (0001ms, 1018ms total)
T2408 023:653 JLINK_ReadMemU32(0xE0001028, 0x0001 Items, ...) -- CPU_ReadMem(4 bytes @ 0xE0001028) - Data: 00 00 00 00  returns 0x01 (0001ms, 1019ms total)
T2408 023:654 JLINK_ReadMemU32(0xE0001038, 0x0001 Items, ...) -- CPU_ReadMem(4 bytes @ 0xE0001038) - Data: 00 02 00 00  returns 0x01 (0001ms, 1020ms total)
T2408 023:655 JLINK_ReadMemU32(0xE0001048, 0x0001 Items, ...) -- CPU_ReadMem(4 bytes @ 0xE0001048) - Data: 00 00 00 00  returns 0x01 (0000ms, 1020ms total)
T2408 023:655 JLINK_ReadMemU32(0xE0001058, 0x0001 Items, ...) -- CPU_ReadMem(4 bytes @ 0xE0001058) - Data: 00 00 00 00  returns 0x01 (0001ms, 1021ms total)
T2408 023:657 JLINK_ReadReg(R0)  returns 0x20004D08 (0000ms, 1022ms total)
T2408 023:657 JLINK_ReadReg(R1)  returns 0x00000000 (0000ms, 1022ms total)
T2408 023:657 JLINK_ReadReg(R2)  returns 0x00000000 (0000ms, 1022ms total)
T2408 023:657 JLINK_ReadReg(R3)  returns 0x00000000 (0000ms, 1022ms total)
T2408 023:657 JLINK_ReadReg(R4)  returns 0x20004D08 (0000ms, 1022ms total)
T2408 023:657 JLINK_ReadReg(R5)  returns 0x08008E70 (0000ms, 1022ms total)
T2408 023:657 JLINK_ReadReg(R6)  returns 0x00000000 (0000ms, 1022ms total)
T2408 023:657 JLINK_ReadReg(R7)  returns 0x00000000 (0000ms, 1022ms total)
T2408 023:657 JLINK_ReadReg(R8)  returns 0x00000000 (0000ms, 1022ms total)
T2408 023:657 JLINK_ReadReg(R9)  returns 0x00000000 (0001ms, 1023ms total)
T2408 023:658 JLINK_ReadReg(R10)  returns 0x00000000 (0000ms, 1023ms total)
T2408 023:658 JLINK_ReadReg(R11)  returns 0x00000000 (0000ms, 1023ms total)
T2408 023:658 JLINK_ReadReg(R12)  returns 0x00000000 (0000ms, 1023ms total)
T2408 023:658 JLINK_ReadReg(R13 (SP))  returns 0x20004CD8 (0000ms, 1023ms total)
T2408 023:658 JLINK_ReadReg(R14)  returns 0x08006FC5 (0000ms, 1023ms total)
T2408 023:658 JLINK_ReadReg(R15 (PC))  returns 0x0800094A (0000ms, 1023ms total)
T2408 023:658 JLINK_ReadReg(XPSR)  returns 0x81000000 (0000ms, 1023ms total)
T2408 023:658 JLINK_ReadReg(MSP)  returns 0x20004CD8 (0000ms, 1023ms total)
T2408 023:658 JLINK_ReadReg(PSP)  returns 0x00000000 (0000ms, 1023ms total)
T2408 023:658 JLINK_ReadReg(CFBP)  returns 0x04000000 (0000ms, 1023ms total)
T2408 023:658 JLINK_ReadReg(FPSCR)  returns 0x80000010 (0006ms, 1029ms total)
T2408 023:664 JLINK_ReadReg(FPS0)  returns 0x443F9333 (0000ms, 1029ms total)
T2408 023:664 JLINK_ReadReg(FPS1)  returns 0xC24C0000 (0000ms, 1029ms total)
T2408 023:664 JLINK_ReadReg(FPS2)  returns 0x44008DBC (0000ms, 1029ms total)
T2408 023:664 JLINK_ReadReg(FPS3)  returns 0x00000000 (0000ms, 1029ms total)
T2408 023:664 JLINK_ReadReg(FPS4)  returns 0x00000000 (0000ms, 1029ms total)
T2408 023:664 JLINK_ReadReg(FPS5)  returns 0x00000000 (0000ms, 1029ms total)
T2408 023:664 JLINK_ReadReg(FPS6)  returns 0x00000000 (0000ms, 1029ms total)
T2408 023:664 JLINK_ReadReg(FPS7)  returns 0x00000000 (0000ms, 1029ms total)
T2408 023:664 JLINK_ReadReg(FPS8)  returns 0x00000000 (0000ms, 1029ms total)
T2408 023:664 JLINK_ReadReg(FPS9)  returns 0x00000000 (0000ms, 1029ms total)
T2408 023:664 JLINK_ReadReg(FPS10)  returns 0x00000000 (0000ms, 1029ms total)
T2408 023:664 JLINK_ReadReg(FPS11)  returns 0x00000000 (0000ms, 1029ms total)
T2408 023:665 JLINK_ReadReg(FPS12)  returns 0x00000000 (0000ms, 1030ms total)
T2408 023:665 JLINK_ReadReg(FPS13)  returns 0x00000000 (0000ms, 1030ms total)
T2408 023:665 JLINK_ReadReg(FPS14)  returns 0x00000000 (0000ms, 1030ms total)
T2408 023:665 JLINK_ReadReg(FPS15)  returns 0x00000000 (0000ms, 1030ms total)
T2408 023:665 JLINK_ReadReg(FPS16)  returns 0x43E79B78 (0000ms, 1030ms total)
T2408 023:665 JLINK_ReadReg(FPS17)  returns 0x00000000 (0000ms, 1030ms total)
T2408 023:665 JLINK_ReadReg(FPS18)  returns 0x00000000 (0000ms, 1030ms total)
T2408 023:665 JLINK_ReadReg(FPS19)  returns 0x00000000 (0000ms, 1030ms total)
T2408 023:665 JLINK_ReadReg(FPS20)  returns 0x00000000 (0000ms, 1030ms total)
T2408 023:665 JLINK_ReadReg(FPS21)  returns 0x00000000 (0000ms, 1030ms total)
T2408 023:665 JLINK_ReadReg(FPS22)  returns 0x00000000 (0000ms, 1030ms total)
T2408 023:665 JLINK_ReadReg(FPS23)  returns 0x00000000 (0000ms, 1030ms total)
T2408 023:666 JLINK_ReadReg(FPS24)  returns 0x00000000 (0000ms, 1031ms total)
T2408 023:666 JLINK_ReadReg(FPS25)  returns 0x00000000 (0000ms, 1031ms total)
T2408 023:666 JLINK_ReadReg(FPS26)  returns 0x00000000 (0000ms, 1031ms total)
T2408 023:666 JLINK_ReadReg(FPS27)  returns 0x00000000 (0000ms, 1031ms total)
T2408 023:666 JLINK_ReadReg(FPS28)  returns 0x00000000 (0000ms, 1031ms total)
T2408 023:666 JLINK_ReadReg(FPS29)  returns 0x00000000 (0000ms, 1031ms total)
T2408 023:666 JLINK_ReadReg(FPS30)  returns 0x00000000 (0000ms, 1031ms total)
T2408 023:666 JLINK_ReadReg(FPS31)  returns 0x00000000 (0000ms, 1031ms total)
T1320 023:666 JLINK_ReadMem (0x20004CFC, 0x0004 Bytes, ...) -- CPU_ReadMem(64 bytes @ 0x20004CC0) -- Updating C cache (64 bytes @ 0x20004CC0) -- Read from C cache (4 bytes @ 0x20004CFC) - Data: C5 6F 00 08  returns 0x00 (0002ms, 1033ms total)
T1320 023:668 JLINK_ReadMem (0x20004CF8, 0x0004 Bytes, ...) -- Read from C cache (4 bytes @ 0x20004CF8) - Data: 00 00 00 00  returns 0x00 (0000ms, 1033ms total)
T1320 023:668 JLINK_ReadMem (0x20004D14, 0x0004 Bytes, ...) -- CPU_ReadMem(64 bytes @ 0x20004D00) -- Updating C cache (64 bytes @ 0x20004D00) -- Read from C cache (4 bytes @ 0x20004D14) - Data: E7 8D 00 08  returns 0x00 (0002ms, 1035ms total)
T1320 023:670 JLINK_ReadMem (0x20004D0C, 0x0004 Bytes, ...) -- Read from C cache (4 bytes @ 0x20004D0C) - Data: 00 00 00 00  returns 0x00 (0000ms, 1035ms total)
T1320 023:670 JLINK_ReadMem (0x20004D10, 0x0004 Bytes, ...) -- Read from C cache (4 bytes @ 0x20004D10) - Data: 70 8E 00 08  returns 0x00 (0000ms, 1035ms total)
T1320 023:681 JLINK_ReadMem (0x200023E4, 0x001C Bytes, ...) -- CPU_ReadMem(64 bytes @ 0x200023C0) -- Updating C cache (64 bytes @ 0x200023C0) -- Read from C cache (28 bytes @ 0x200023E4) - Data: AA AA 10 00 00 00 3E 04 00 00 00 00 00 00 08 07 ...  returns 0x00 (0001ms, 1036ms total)
T1320 023:682 JLINK_ReadMem (0x20002400, 0x0004 Bytes, ...) -- CPU_ReadMem(64 bytes @ 0x20002400) -- Updating C cache (64 bytes @ 0x20002400) -- Read from C cache (4 bytes @ 0x20002400) - Data: 28 00 00 32  returns 0x00 (0002ms, 1038ms total)
T2408 023:984 JLINK_Step() -- CPU_ReadMem(64 bytes @ 0x08000940) -- Updating C cache (64 bytes @ 0x08000940) -- Read from C cache (2 bytes @ 0x0800094A) -- CPU_ReadMem(4 bytes @ 0xE0001004) -- Read from C cache (2 bytes @ 0x0800094C) -- Not simulated -- CPU_WriteMem(4 bytes @ 0xE0002008) -- CPU_WriteMem(4 bytes @ 0xE000200C)  returns 0x00 (0007ms, 1045ms total)
T2408 023:991 JLINK_ReadReg(R15 (PC))  returns 0x0800094E (0000ms, 1045ms total)
T2408 023:991 JLINK_ReadReg(XPSR)  returns 0x81000000 (0000ms, 1045ms total)
T2408 023:991 JLINK_SetBPEx(Addr = 0x0800094A, Type = 0xFFFFFFF2)  returns 0x00000008 (0000ms, 1045ms total)
T2408 023:991 JLINK_SetBPEx(Addr = 0x08000982, Type = 0xFFFFFFF2)  returns 0x00000009 (0000ms, 1045ms total)
T2408 023:991 JLINK_Go() -- CPU_WriteMem(4 bytes @ 0xE0002000) -- CPU_WriteMem(4 bytes @ 0xE0002000) -- CPU_WriteMem(4 bytes @ 0xE0002008) -- CPU_WriteMem(4 bytes @ 0xE000200C) (0004ms, 1049ms total)
T2408 024:096 JLINK_IsHalted()  returns TRUE (0003ms, 1052ms total)
T2408 024:099 JLINK_Halt()  returns 0x00 (0001ms, 1050ms total)
T2408 024:100 JLINK_IsHalted()  returns TRUE (0000ms, 1050ms total)
T2408 024:100 JLINK_IsHalted()  returns TRUE (0000ms, 1050ms total)
T2408 024:100 JLINK_IsHalted()  returns TRUE (0000ms, 1050ms total)
T2408 024:100 JLINK_ReadReg(R15 (PC))  returns 0x0800094A (0000ms, 1050ms total)
T2408 024:100 JLINK_ReadReg(XPSR)  returns 0x81000000 (0000ms, 1050ms total)
T2408 024:100 JLINK_ClrBPEx(BPHandle = 0x00000008)  returns 0x00 (0000ms, 1050ms total)
T2408 024:100 JLINK_ClrBPEx(BPHandle = 0x00000009)  returns 0x00 (0000ms, 1050ms total)
T2408 024:100 JLINK_ReadMemU32(0xE000ED30, 0x0001 Items, ...) -- CPU_ReadMem(4 bytes @ 0xE000ED30) - Data: 03 00 00 00  returns 0x01 (0001ms, 1051ms total)
T2408 024:101 JLINK_ReadMemU32(0xE0001028, 0x0001 Items, ...) -- CPU_ReadMem(4 bytes @ 0xE0001028) - Data: 00 00 00 00  returns 0x01 (0000ms, 1051ms total)
T2408 024:101 JLINK_ReadMemU32(0xE0001038, 0x0001 Items, ...) -- CPU_ReadMem(4 bytes @ 0xE0001038) - Data: 00 02 00 00  returns 0x01 (0001ms, 1052ms total)
T2408 024:102 JLINK_ReadMemU32(0xE0001048, 0x0001 Items, ...) -- CPU_ReadMem(4 bytes @ 0xE0001048) - Data: 00 00 00 00  returns 0x01 (0001ms, 1053ms total)
T2408 024:103 JLINK_ReadMemU32(0xE0001058, 0x0001 Items, ...) -- CPU_ReadMem(4 bytes @ 0xE0001058) - Data: 00 00 00 00  returns 0x01 (0001ms, 1054ms total)
T2408 024:104 JLINK_ReadReg(R0)  returns 0x20004D08 (0000ms, 1054ms total)
T2408 024:104 JLINK_ReadReg(R1)  returns 0x00000000 (0000ms, 1054ms total)
T2408 024:104 JLINK_ReadReg(R2)  returns 0x00000000 (0000ms, 1054ms total)
T2408 024:104 JLINK_ReadReg(R3)  returns 0x00000000 (0000ms, 1054ms total)
T2408 024:104 JLINK_ReadReg(R4)  returns 0x20004D08 (0000ms, 1054ms total)
T2408 024:104 JLINK_ReadReg(R5)  returns 0x08008E70 (0000ms, 1054ms total)
T2408 024:104 JLINK_ReadReg(R6)  returns 0x00000000 (0000ms, 1054ms total)
T2408 024:104 JLINK_ReadReg(R7)  returns 0x00000000 (0000ms, 1054ms total)
T2408 024:104 JLINK_ReadReg(R8)  returns 0x00000000 (0000ms, 1054ms total)
T2408 024:104 JLINK_ReadReg(R9)  returns 0x00000000 (0000ms, 1054ms total)
T2408 024:104 JLINK_ReadReg(R10)  returns 0x00000000 (0000ms, 1054ms total)
T2408 024:104 JLINK_ReadReg(R11)  returns 0x00000000 (0000ms, 1054ms total)
T2408 024:104 JLINK_ReadReg(R12)  returns 0x00000000 (0000ms, 1054ms total)
T2408 024:104 JLINK_ReadReg(R13 (SP))  returns 0x20004CD8 (0000ms, 1054ms total)
T2408 024:104 JLINK_ReadReg(R14)  returns 0x08006FC5 (0000ms, 1054ms total)
T2408 024:104 JLINK_ReadReg(R15 (PC))  returns 0x0800094A (0000ms, 1054ms total)
T2408 024:104 JLINK_ReadReg(XPSR)  returns 0x81000000 (0000ms, 1054ms total)
T2408 024:104 JLINK_ReadReg(MSP)  returns 0x20004CD8 (0000ms, 1054ms total)
T2408 024:104 JLINK_ReadReg(PSP)  returns 0x00000000 (0000ms, 1054ms total)
T2408 024:104 JLINK_ReadReg(CFBP)  returns 0x04000000 (0000ms, 1054ms total)
T2408 024:104 JLINK_ReadReg(FPSCR)  returns 0x80000010 (0005ms, 1059ms total)
T2408 024:109 JLINK_ReadReg(FPS0)  returns 0x443F9333 (0000ms, 1059ms total)
T2408 024:109 JLINK_ReadReg(FPS1)  returns 0xC24C0000 (0000ms, 1059ms total)
T2408 024:109 JLINK_ReadReg(FPS2)  returns 0x4400ABE5 (0001ms, 1060ms total)
T2408 024:110 JLINK_ReadReg(FPS3)  returns 0x00000000 (0000ms, 1060ms total)
T2408 024:110 JLINK_ReadReg(FPS4)  returns 0x00000000 (0000ms, 1060ms total)
T2408 024:110 JLINK_ReadReg(FPS5)  returns 0x00000000 (0000ms, 1060ms total)
T2408 024:110 JLINK_ReadReg(FPS6)  returns 0x00000000 (0000ms, 1060ms total)
T2408 024:110 JLINK_ReadReg(FPS7)  returns 0x00000000 (0000ms, 1060ms total)
T2408 024:110 JLINK_ReadReg(FPS8)  returns 0x00000000 (0000ms, 1060ms total)
T2408 024:110 JLINK_ReadReg(FPS9)  returns 0x00000000 (0000ms, 1060ms total)
T2408 024:110 JLINK_ReadReg(FPS10)  returns 0x00000000 (0000ms, 1060ms total)
T2408 024:110 JLINK_ReadReg(FPS11)  returns 0x00000000 (0000ms, 1060ms total)
T2408 024:110 JLINK_ReadReg(FPS12)  returns 0x00000000 (0000ms, 1060ms total)
T2408 024:110 JLINK_ReadReg(FPS13)  returns 0x00000000 (0000ms, 1060ms total)
T2408 024:110 JLINK_ReadReg(FPS14)  returns 0x00000000 (0000ms, 1060ms total)
T2408 024:110 JLINK_ReadReg(FPS15)  returns 0x00000000 (0000ms, 1060ms total)
T2408 024:110 JLINK_ReadReg(FPS16)  returns 0x43E7D7CA (0000ms, 1060ms total)
T2408 024:110 JLINK_ReadReg(FPS17)  returns 0x00000000 (0000ms, 1060ms total)
T2408 024:110 JLINK_ReadReg(FPS18)  returns 0x00000000 (0000ms, 1060ms total)
T2408 024:110 JLINK_ReadReg(FPS19)  returns 0x00000000 (0000ms, 1060ms total)
T2408 024:110 JLINK_ReadReg(FPS20)  returns 0x00000000 (0000ms, 1060ms total)
T2408 024:110 JLINK_ReadReg(FPS21)  returns 0x00000000 (0000ms, 1060ms total)
T2408 024:110 JLINK_ReadReg(FPS22)  returns 0x00000000 (0001ms, 1061ms total)
T2408 024:111 JLINK_ReadReg(FPS23)  returns 0x00000000 (0000ms, 1061ms total)
T2408 024:111 JLINK_ReadReg(FPS24)  returns 0x00000000 (0000ms, 1061ms total)
T2408 024:111 JLINK_ReadReg(FPS25)  returns 0x00000000 (0000ms, 1061ms total)
T2408 024:111 JLINK_ReadReg(FPS26)  returns 0x00000000 (0000ms, 1061ms total)
T2408 024:111 JLINK_ReadReg(FPS27)  returns 0x00000000 (0000ms, 1061ms total)
T2408 024:111 JLINK_ReadReg(FPS28)  returns 0x00000000 (0000ms, 1061ms total)
T2408 024:111 JLINK_ReadReg(FPS29)  returns 0x00000000 (0000ms, 1061ms total)
T2408 024:111 JLINK_ReadReg(FPS30)  returns 0x00000000 (0000ms, 1061ms total)
T2408 024:111 JLINK_ReadReg(FPS31)  returns 0x00000000 (0000ms, 1061ms total)
T1320 024:111 JLINK_ReadMem (0x20004CFC, 0x0004 Bytes, ...) -- CPU_ReadMem(64 bytes @ 0x20004CC0) -- Updating C cache (64 bytes @ 0x20004CC0) -- Read from C cache (4 bytes @ 0x20004CFC) - Data: C5 6F 00 08  returns 0x00 (0002ms, 1063ms total)
T1320 024:113 JLINK_ReadMem (0x20004CF8, 0x0004 Bytes, ...) -- Read from C cache (4 bytes @ 0x20004CF8) - Data: 00 00 00 00  returns 0x00 (0000ms, 1063ms total)
T1320 024:113 JLINK_ReadMem (0x20004D14, 0x0004 Bytes, ...) -- CPU_ReadMem(64 bytes @ 0x20004D00) -- Updating C cache (64 bytes @ 0x20004D00) -- Read from C cache (4 bytes @ 0x20004D14) - Data: E7 8D 00 08  returns 0x00 (0001ms, 1064ms total)
T1320 024:114 JLINK_ReadMem (0x20004D0C, 0x0004 Bytes, ...) -- Read from C cache (4 bytes @ 0x20004D0C) - Data: 00 00 00 00  returns 0x00 (0001ms, 1065ms total)
T1320 024:115 JLINK_ReadMem (0x20004D10, 0x0004 Bytes, ...) -- Read from C cache (4 bytes @ 0x20004D10) - Data: 70 8E 00 08  returns 0x00 (0000ms, 1065ms total)
T1320 024:120 JLINK_ReadMem (0x200023E4, 0x001C Bytes, ...) -- CPU_ReadMem(64 bytes @ 0x200023C0) -- Updating C cache (64 bytes @ 0x200023C0) -- Read from C cache (28 bytes @ 0x200023E4) - Data: AA AA 10 00 00 00 3E 04 00 00 00 00 00 00 08 07 ...  returns 0x00 (0002ms, 1067ms total)
T1320 024:122 JLINK_ReadMem (0x20002400, 0x0004 Bytes, ...) -- CPU_ReadMem(64 bytes @ 0x20002400) -- Updating C cache (64 bytes @ 0x20002400) -- Read from C cache (4 bytes @ 0x20002400) - Data: 28 00 00 32  returns 0x00 (0001ms, 1068ms total)
T2408 024:150 JLINK_Step() -- CPU_ReadMem(64 bytes @ 0x08000940) -- Updating C cache (64 bytes @ 0x08000940) -- Read from C cache (2 bytes @ 0x0800094A) -- CPU_ReadMem(4 bytes @ 0xE0001004) -- Read from C cache (2 bytes @ 0x0800094C) -- Not simulated -- CPU_WriteMem(4 bytes @ 0xE0002008) -- CPU_WriteMem(4 bytes @ 0xE000200C)  returns 0x00 (0008ms, 1076ms total)
T2408 024:158 JLINK_ReadReg(R15 (PC))  returns 0x0800094E (0000ms, 1076ms total)
T2408 024:158 JLINK_ReadReg(XPSR)  returns 0x81000000 (0000ms, 1076ms total)
T2408 024:158 JLINK_SetBPEx(Addr = 0x0800094A, Type = 0xFFFFFFF2)  returns 0x0000000A (0000ms, 1076ms total)
T2408 024:158 JLINK_SetBPEx(Addr = 0x08000982, Type = 0xFFFFFFF2)  returns 0x0000000B (0000ms, 1076ms total)
T2408 024:158 JLINK_Go() -- CPU_WriteMem(4 bytes @ 0xE0002000) -- CPU_WriteMem(4 bytes @ 0xE0002000) -- CPU_WriteMem(4 bytes @ 0xE0002008) -- CPU_WriteMem(4 bytes @ 0xE000200C) (0003ms, 1079ms total)
T2408 024:262 JLINK_IsHalted()  returns TRUE (0003ms, 1082ms total)
T2408 024:266 JLINK_Halt()  returns 0x00 (0000ms, 1079ms total)
T2408 024:266 JLINK_IsHalted()  returns TRUE (0000ms, 1079ms total)
T2408 024:266 JLINK_IsHalted()  returns TRUE (0000ms, 1079ms total)
T2408 024:266 JLINK_IsHalted()  returns TRUE (0000ms, 1079ms total)
T2408 024:266 JLINK_ReadReg(R15 (PC))  returns 0x0800094A (0000ms, 1079ms total)
T2408 024:266 JLINK_ReadReg(XPSR)  returns 0x81000000 (0000ms, 1079ms total)
T2408 024:266 JLINK_ClrBPEx(BPHandle = 0x0000000A)  returns 0x00 (0000ms, 1079ms total)
T2408 024:266 JLINK_ClrBPEx(BPHandle = 0x0000000B)  returns 0x00 (0000ms, 1079ms total)
T2408 024:266 JLINK_ReadMemU32(0xE000ED30, 0x0001 Items, ...) -- CPU_ReadMem(4 bytes @ 0xE000ED30) - Data: 03 00 00 00  returns 0x01 (0001ms, 1080ms total)
T2408 024:267 JLINK_ReadMemU32(0xE0001028, 0x0001 Items, ...) -- CPU_ReadMem(4 bytes @ 0xE0001028) - Data: 00 00 00 00  returns 0x01 (0000ms, 1080ms total)
T2408 024:267 JLINK_ReadMemU32(0xE0001038, 0x0001 Items, ...) -- CPU_ReadMem(4 bytes @ 0xE0001038) - Data: 00 02 00 00  returns 0x01 (0001ms, 1081ms total)
T2408 024:268 JLINK_ReadMemU32(0xE0001048, 0x0001 Items, ...) -- CPU_ReadMem(4 bytes @ 0xE0001048) - Data: 00 00 00 00  returns 0x01 (0001ms, 1082ms total)
T2408 024:269 JLINK_ReadMemU32(0xE0001058, 0x0001 Items, ...) -- CPU_ReadMem(4 bytes @ 0xE0001058) - Data: 00 00 00 00  returns 0x01 (0001ms, 1083ms total)
T2408 024:270 JLINK_ReadReg(R0)  returns 0x20004D08 (0000ms, 1083ms total)
T2408 024:270 JLINK_ReadReg(R1)  returns 0x00000000 (0000ms, 1083ms total)
T2408 024:270 JLINK_ReadReg(R2)  returns 0x00000000 (0000ms, 1083ms total)
T2408 024:270 JLINK_ReadReg(R3)  returns 0x00000000 (0000ms, 1083ms total)
T2408 024:270 JLINK_ReadReg(R4)  returns 0x20004D08 (0000ms, 1083ms total)
T2408 024:270 JLINK_ReadReg(R5)  returns 0x08008E70 (0000ms, 1083ms total)
T2408 024:270 JLINK_ReadReg(R6)  returns 0x00000000 (0000ms, 1083ms total)
T2408 024:270 JLINK_ReadReg(R7)  returns 0x00000000 (0000ms, 1083ms total)
T2408 024:270 JLINK_ReadReg(R8)  returns 0x00000000 (0000ms, 1083ms total)
T2408 024:270 JLINK_ReadReg(R9)  returns 0x00000000 (0000ms, 1083ms total)
T2408 024:270 JLINK_ReadReg(R10)  returns 0x00000000 (0000ms, 1083ms total)
T2408 024:270 JLINK_ReadReg(R11)  returns 0x00000000 (0000ms, 1083ms total)
T2408 024:270 JLINK_ReadReg(R12)  returns 0x00000000 (0000ms, 1083ms total)
T2408 024:270 JLINK_ReadReg(R13 (SP))  returns 0x20004CD8 (0000ms, 1083ms total)
T2408 024:270 JLINK_ReadReg(R14)  returns 0x08006FC5 (0000ms, 1083ms total)
T2408 024:270 JLINK_ReadReg(R15 (PC))  returns 0x0800094A (0000ms, 1083ms total)
T2408 024:270 JLINK_ReadReg(XPSR)  returns 0x81000000 (0000ms, 1083ms total)
T2408 024:270 JLINK_ReadReg(MSP)  returns 0x20004CD8 (0000ms, 1083ms total)
T2408 024:271 JLINK_ReadReg(PSP)  returns 0x00000000 (0000ms, 1084ms total)
T2408 024:271 JLINK_ReadReg(CFBP)  returns 0x04000000 (0000ms, 1084ms total)
T2408 024:271 JLINK_ReadReg(FPSCR)  returns 0x80000010 (0005ms, 1089ms total)
T2408 024:276 JLINK_ReadReg(FPS0)  returns 0x443F9333 (0000ms, 1089ms total)
T2408 024:276 JLINK_ReadReg(FPS1)  returns 0xC24C0000 (0000ms, 1089ms total)
T2408 024:276 JLINK_ReadReg(FPS2)  returns 0x44009CE8 (0000ms, 1089ms total)
T2408 024:276 JLINK_ReadReg(FPS3)  returns 0x00000000 (0000ms, 1089ms total)
T2408 024:276 JLINK_ReadReg(FPS4)  returns 0x00000000 (0000ms, 1089ms total)
T2408 024:276 JLINK_ReadReg(FPS5)  returns 0x00000000 (0000ms, 1089ms total)
T2408 024:276 JLINK_ReadReg(FPS6)  returns 0x00000000 (0000ms, 1089ms total)
T2408 024:276 JLINK_ReadReg(FPS7)  returns 0x00000000 (0000ms, 1089ms total)
T2408 024:276 JLINK_ReadReg(FPS8)  returns 0x00000000 (0000ms, 1089ms total)
T2408 024:276 JLINK_ReadReg(FPS9)  returns 0x00000000 (0000ms, 1089ms total)
T2408 024:277 JLINK_ReadReg(FPS10)  returns 0x00000000 (0000ms, 1090ms total)
T2408 024:277 JLINK_ReadReg(FPS11)  returns 0x00000000 (0000ms, 1090ms total)
T2408 024:277 JLINK_ReadReg(FPS12)  returns 0x00000000 (0000ms, 1090ms total)
T2408 024:277 JLINK_ReadReg(FPS13)  returns 0x00000000 (0000ms, 1090ms total)
T2408 024:277 JLINK_ReadReg(FPS14)  returns 0x00000000 (0000ms, 1090ms total)
T2408 024:277 JLINK_ReadReg(FPS15)  returns 0x00000000 (0000ms, 1090ms total)
T2408 024:277 JLINK_ReadReg(FPS16)  returns 0x43E7B9D0 (0000ms, 1090ms total)
T2408 024:277 JLINK_ReadReg(FPS17)  returns 0x00000000 (0000ms, 1090ms total)
T2408 024:277 JLINK_ReadReg(FPS18)  returns 0x00000000 (0000ms, 1090ms total)
T2408 024:277 JLINK_ReadReg(FPS19)  returns 0x00000000 (0000ms, 1090ms total)
T2408 024:277 JLINK_ReadReg(FPS20)  returns 0x00000000 (0000ms, 1090ms total)
T2408 024:277 JLINK_ReadReg(FPS21)  returns 0x00000000 (0000ms, 1090ms total)
T2408 024:277 JLINK_ReadReg(FPS22)  returns 0x00000000 (0000ms, 1090ms total)
T2408 024:277 JLINK_ReadReg(FPS23)  returns 0x00000000 (0000ms, 1090ms total)
T2408 024:277 JLINK_ReadReg(FPS24)  returns 0x00000000 (0000ms, 1090ms total)
T2408 024:277 JLINK_ReadReg(FPS25)  returns 0x00000000 (0000ms, 1090ms total)
T2408 024:277 JLINK_ReadReg(FPS26)  returns 0x00000000 (0000ms, 1090ms total)
T2408 024:277 JLINK_ReadReg(FPS27)  returns 0x00000000 (0000ms, 1090ms total)
T2408 024:277 JLINK_ReadReg(FPS28)  returns 0x00000000 (0000ms, 1090ms total)
T2408 024:277 JLINK_ReadReg(FPS29)  returns 0x00000000 (0000ms, 1090ms total)
T2408 024:277 JLINK_ReadReg(FPS30)  returns 0x00000000 (0000ms, 1090ms total)
T2408 024:277 JLINK_ReadReg(FPS31)  returns 0x00000000 (0000ms, 1090ms total)
T1320 024:278 JLINK_ReadMem (0x20004CFC, 0x0004 Bytes, ...) -- CPU_ReadMem(64 bytes @ 0x20004CC0) -- Updating C cache (64 bytes @ 0x20004CC0) -- Read from C cache (4 bytes @ 0x20004CFC) - Data: C5 6F 00 08  returns 0x00 (0001ms, 1091ms total)
T1320 024:279 JLINK_ReadMem (0x20004CF8, 0x0004 Bytes, ...) -- Read from C cache (4 bytes @ 0x20004CF8) - Data: 00 00 00 00  returns 0x00 (0000ms, 1091ms total)
T1320 024:279 JLINK_ReadMem (0x20004D14, 0x0004 Bytes, ...) -- CPU_ReadMem(64 bytes @ 0x20004D00) -- Updating C cache (64 bytes @ 0x20004D00) -- Read from C cache (4 bytes @ 0x20004D14) - Data: E7 8D 00 08  returns 0x00 (0001ms, 1092ms total)
T1320 024:280 JLINK_ReadMem (0x20004D0C, 0x0004 Bytes, ...) -- Read from C cache (4 bytes @ 0x20004D0C) - Data: 00 00 00 00  returns 0x00 (0001ms, 1093ms total)
T1320 024:281 JLINK_ReadMem (0x20004D10, 0x0004 Bytes, ...) -- Read from C cache (4 bytes @ 0x20004D10) - Data: 70 8E 00 08  returns 0x00 (0000ms, 1093ms total)
T1320 024:286 JLINK_ReadMem (0x200023E4, 0x001C Bytes, ...) -- CPU_ReadMem(64 bytes @ 0x200023C0) -- Updating C cache (64 bytes @ 0x200023C0) -- Read from C cache (28 bytes @ 0x200023E4) - Data: AA AA 10 00 00 00 3E 04 00 00 00 00 00 00 08 07 ...  returns 0x00 (0002ms, 1095ms total)
T1320 024:288 JLINK_ReadMem (0x20002400, 0x0004 Bytes, ...) -- CPU_ReadMem(64 bytes @ 0x20002400) -- Updating C cache (64 bytes @ 0x20002400) -- Read from C cache (4 bytes @ 0x20002400) - Data: 28 00 00 32  returns 0x00 (0001ms, 1096ms total)
